<Qucs Dataset 0.0.15>
<indep time 11>
  +0.00000000000e+00
  +1.00000000000e-04
  +2.00000000000e-04
  +3.00000000000e-04
  +4.00000000000e-04
  +5.00000000000e-04
  +6.00000000000e-04
  +7.00000000000e-04
  +8.00000000000e-04
  +9.00000000000e-04
  +1.00000000000e-03
</indep>
<dep Pr1.Vt time>
  +6.99569022554e-01
  +6.99569022554e-01
  +6.99569022554e-01
  +6.99569022554e-01
  +6.99569022554e-01
  +6.99569022554e-01
  +6.99569022554e-01
  +6.99569022554e-01
  +6.99569022554e-01
  +6.99569022554e-01
  +6.99569022554e-01
</dep>
<dep Pr2.Vt time>
  +6.84466019417e+00
  +6.84466019417e+00
  +6.84466019417e+00
  +6.84466019417e+00
  +6.84466019417e+00
  +6.84466019417e+00
  +6.84466019417e+00
  +6.84466019417e+00
  +6.84466019417e+00
  +6.84466019417e+00
  +6.84466019417e+00
</dep>
<dep V1.It time>
  -5.66690736666e-03
  -5.66690736666e-03
  -5.66690736666e-03
  -5.66690736666e-03
  -5.66690736666e-03
  -5.66690736666e-03
  -5.66690736666e-03
  -5.66690736666e-03
  -5.66690736666e-03
  -5.66690736666e-03
  -5.66690736666e-03
</dep>
<dep Pr3.It time>
  +5.65234425986e-03
  +5.65234425986e-03
  +5.65234425986e-03
  +5.65234425986e-03
  +5.65234425986e-03
  +5.65234425986e-03
  +5.65234425986e-03
  +5.65234425986e-03
  +5.65234425986e-03
  +5.65234425986e-03
  +5.65234425986e-03
</dep>
<dep _net0.Vt time>
  +6.84466019417e+00
  +6.84466019417e+00
  +6.84466019417e+00
  +6.84466019417e+00
  +6.84466019417e+00
  +6.84466019417e+00
  +6.84466019417e+00
  +6.84466019417e+00
  +6.84466019417e+00
  +6.84466019417e+00
  +6.84466019417e+00
</dep>
<dep _net2.Vt time>
  +2.56484262831e+00
  +2.56484262831e+00
  +2.56484262831e+00
  +2.56484262831e+00
  +2.56484262831e+00
  +2.56484262831e+00
  +2.56484262831e+00
  +2.56484262831e+00
  +2.56484262831e+00
  +2.56484262831e+00
  +2.56484262831e+00
</dep>
<dep _net1.Vt time>
  +1.86527360575e+00
  +1.86527360575e+00
  +1.86527360575e+00
  +1.86527360575e+00
  +1.86527360575e+00
  +1.86527360575e+00
  +1.86527360575e+00
  +1.86527360575e+00
  +1.86527360575e+00
  +1.86527360575e+00
  +1.86527360575e+00
</dep>
<dep _net4.Vt time>
  +1.50000000000e+01
  +1.50000000000e+01
  +1.50000000000e+01
  +1.50000000000e+01
  +1.50000000000e+01
  +1.50000000000e+01
  +1.50000000000e+01
  +1.50000000000e+01
  +1.50000000000e+01
  +1.50000000000e+01
  +1.50000000000e+01
</dep>
<dep _net3.Vt time>
  +1.50000000000e+01
  +1.50000000000e+01
  +1.50000000000e+01
  +1.50000000000e+01
  +1.50000000000e+01
  +1.50000000000e+01
  +1.50000000000e+01
  +1.50000000000e+01
  +1.50000000000e+01
  +1.50000000000e+01
  +1.50000000000e+01
</dep>
